date Mon May 25 16:22:58.548 2026
base hex  timestamps absolute
internal events logged
Begin Triggerblock Mon May 25 16:22:58.573 2026
 0.000000 Start of measurement
 0.000000 1  706             Tx   d 8 03 22 F1 DD 00 00 00 00
 0.020251 CANFD   1 Rx        70E                                   1 0 8  8 10 0A 62 F1 DD 32 35 41        0    0     3000        0        0        0        0        0
 0.027523 1  706             Tx   d 8 30 08 0A 00 00 00 00 00
 0.030294 CANFD   1 Rx        70E                                   1 0 8  8 21 31 30 30 30 AA AA AA        0    0     3000        0        0        0        0        0
 0.143430 1  706             Tx   d 8 03 22 F1 00 00 00 00 00
 0.160340 CANFD   1 Rx        70E                                   1 0 8  8 03 7F 22 31 AA AA AA AA        0    0     3000        0        0        0        0        0
 0.277442 1  706             Tx   d 8 03 22 F1 8B 00 00 00 00
 0.300378 CANFD   1 Rx        70E                                   1 0 8  8 07 62 F1 8B 20 25 09 20        0    0     3000        0        0        0        0        0
 0.422548 1  706             Tx   d 8 03 22 F1 8C 00 00 00 00
 0.440287 CANFD   1 Rx        70E                                   1 0 8  8 10 0D 62 F1 8C 30 30 30        0    0     3000        0        0        0        0        0
 0.448206 1  706             Tx   d 8 30 08 0A 00 00 00 00 00
 0.450735 CANFD   1 Rx        70E                                   1 0 8  8 21 30 30 30 30 30 31 34        0    0     3000        0        0        0        0        0
 0.572046 1  706             Tx   d 8 03 22 F1 93 00 00 00 00
 0.590310 CANFD   1 Rx        70E                                   1 0 8  8 07 62 F1 93 44 2E 30 30        0    0     3000        0        0        0        0        0
 0.756208 1  706             Tx   d 8 02 10 01 00 00 00 00 00
 0.780245 CANFD   1 Rx        70E                                   1 0 8  8 06 50 01 00 32 01 F4 AA        0    0     3000        0        0        0        0        0
 0.894801 1  706             Tx   d 8 02 10 03 00 00 00 00 00
 0.910233 CANFD   1 Rx        70E                                   1 0 8  8 06 50 03 00 32 01 F4 AA        0    0     3000        0        0        0        0        0
 1.028003 1  706             Tx   d 8 02 10 FF 00 00 00 00 00
 1.040311 CANFD   1 Rx        70E                                   1 0 8  8 03 7F 10 12 AA AA AA AA        0    0     3000        0        0        0        0        0
 1.155436 1  706             Tx   d 8 01 10 00 00 00 00 00 00
 1.170263 CANFD   1 Rx        70E                                   1 0 8  8 03 7F 10 13 AA AA AA AA        0    0     3000        0        0        0        0        0
 1.283515 1  706             Tx   d 8 02 11 01 00 00 00 00 00
 1.290288 CANFD   1 Rx        70E                                   1 0 8  8 02 51 01 AA AA AA AA AA        0    0     3000        0        0        0        0        0
 2.409215 1  706             Tx   d 8 02 11 03 00 00 00 00 00
 2.424224 CANFD   1 Rx        70E                                   1 0 8  8 02 51 03 AA AA AA AA AA        0    0     3000        0        0        0        0        0
 2.542019 1  706             Tx   d 8 01 11 00 00 00 00 00 00
 4.565187 1  706             Tx   d 8 03 19 01 FF 00 00 00 00
 4.572176 CANFD   1 Rx        70E                                   1 0 8  8 03 7F 19 31 AA AA AA AA        0    0     3000        0        0        0        0        0
 4.645260 1  706             Tx   d 8 03 19 02 FF 00 00 00 00
 4.652223 CANFD   1 Rx        70E                                   1 0 8  8 03 7F 19 31 AA AA AA AA        0    0     3000        0        0        0        0        0
 4.713968 1  706             Tx   d 8 03 19 0F FF 00 00 00 00
 4.721908 CANFD   1 Rx        70E                                   1 0 8  8 03 7F 19 12 AA AA AA AA        0    0     3000        0        0        0        0        0
 4.790652 1  706             Tx   d 8 03 19 0E FF 00 00 00 00
 4.801976 CANFD   1 Rx        70E                                   1 0 8  8 03 7F 19 12 AA AA AA AA        0    0     3000        0        0        0        0        0
 4.865282 1  706             Tx   d 8 03 22 F1 EF 00 00 00 00
 4.882204 CANFD   1 Rx        70E                                   1 0 8  8 10 2B 62 F1 EF 07 06 0B        0    0     3000        0        0        0        0        0
 4.888168 1  706             Tx   d 8 30 08 0A 00 00 00 00 00
 4.892247 CANFD   1 Rx        70E                                   1 0 8  8 21 52 31 30 20 53 50 33        0    0     3000        0        0        0        0        0
 4.907045 CANFD   1 Rx        70E                                   1 0 8  8 22 2F 31 2F 30 0C 52 31        0    0     3000        0        0        0        0        0
 4.922101 CANFD   1 Rx        70E                                   1 0 8  8 23 35 35 20 53 50 33 2F        0    0     3000        0        0        0        0        0
 4.937372 CANFD   1 Rx        70E                                   1 0 8  8 24 31 2F 30 0C 52 31 35        0    0     3000        0        0        0        0        0
 4.952036 CANFD   1 Rx        70E                                   1 0 8  8 25 36 20 53 50 33 2F 31        0    0     3000        0        0        0        0        0
 4.967005 CANFD   1 Rx        70E                                   1 0 8  8 26 2F 30 AA AA AA AA AA        0    0     3000        0        0        0        0        0
 5.085215 1  706             Tx   d 8 03 22 F1 00 00 00 00 00
 5.102031 CANFD   1 Rx        70E                                   1 0 8  8 03 7F 22 31 AA AA AA AA        0    0     3000        0        0        0        0        0
 5.220863 1  706             Tx   d 8 03 22 F1 87 00 00 00 00
 5.242055 CANFD   1 Rx        70E                                   1 0 8  8 10 0D 62 F1 87 38 38 35        0    0     3000        0        0        0        0        0
 5.249150 1  706             Tx   d 8 30 08 0A 00 00 00 00 00
 5.252142 CANFD   1 Rx        70E                                   1 0 8  8 21 34 30 42 4D 30 30 30        0    0     3000        0        0        0        0        0
 5.371068 1  706             Tx   d 8 03 22 F1 8B 00 00 00 00
 5.392196 CANFD   1 Rx        70E                                   1 0 8  8 07 62 F1 8B 20 25 09 20        0    0     3000        0        0        0        0        0
 5.511018 1  706             Tx   d 8 03 22 F1 8C 00 00 00 00
 5.532201 CANFD   1 Rx        70E                                   1 0 8  8 10 0D 62 F1 8C 30 30 30        0    0     3000        0        0        0        0        0
 5.540435 1  706             Tx   d 8 30 08 0A 00 00 00 00 00
 5.541943 CANFD   1 Rx        70E                                   1 0 8  8 21 30 30 30 30 30 31 34        0    0     3000        0        0        0        0        0
 5.661642 1  706             Tx   d 8 03 22 F1 91 00 00 00 00
 5.682085 CANFD   1 Rx        70E                                   1 0 8  8 07 62 F1 91 44 2E 30 30        0    0     3000        0        0        0        0        0
 5.802286 1  706             Tx   d 8 03 22 F1 C1 00 00 00 00
 5.821923 CANFD   1 Rx        70E                                   1 0 8  8 03 7F 22 22 AA AA AA AA        0    0     3000        0        0        0        0        0
 5.936527 1  706             Tx   d 8 03 22 F1 95 00 00 00 00
 5.952287 CANFD   1 Rx        70E                                   1 0 8  8 03 7F 22 31 AA AA AA AA        0    0     3000        0        0        0        0        0
 6.073085 1  706             Tx   d 8 03 22 F1 A0 00 00 00 00
 6.092038 CANFD   1 Rx        70E                                   1 0 8  8 03 7F 22 31 AA AA AA AA        0    0     3000        0        0        0        0        0
 6.206821 1  706             Tx   d 8 03 22 F1 A1 00 00 00 00
 6.232106 CANFD   1 Rx        70E                                   1 0 8  8 07 62 F1 A1 54 45 4C 45        0    0     3000        0        0        0        0        0
 6.353237 1  706             Tx   d 8 03 22 F1 B0 00 00 00 00
 6.372164 CANFD   1 Rx        70E                                   1 0 8  8 04 62 F1 B0 01 AA AA AA        0    0     3000        0        0        0        0        0
 6.490808 1  706             Tx   d 8 03 22 F1 B1 00 00 00 00
 6.512072 CANFD   1 Rx        70E                                   1 0 8  8 10 08 62 F1 B1 32 35 41        0    0     3000        0        0        0        0        0
 6.518902 1  706             Tx   d 8 30 08 0A 00 00 00 00 00
 6.522006 CANFD   1 Rx        70E                                   1 0 8  8 21 31 30 AA AA AA AA AA        0    0     3000        0        0        0        0        0
 6.635009 1  706             Tx   d 8 03 22 F1 DD 00 00 00 00
 6.652021 CANFD   1 Rx        70E                                   1 0 8  8 10 0A 62 F1 DD 32 35 41        0    0     3000        0        0        0        0        0
 6.656437 1  706             Tx   d 8 30 08 0A 00 00 00 00 00
 6.656880 CANFD   1 Rx        70E                                   1 0 8  8 21 31 30 30 30 AA AA AA        0    0     3000        0        0        0        0        0
 6.777383 1  706             Tx   d 8 03 22 F1 97 00 00 00 00
 6.802032 CANFD   1 Rx        70E                                   1 0 8  8 10 0E 62 F1 97 53 48 56        0    0     3000        0        0        0        0        0
 6.813514 1  706             Tx   d 8 30 08 0A 00 00 00 00 00
 6.816903 CANFD   1 Rx        70E                                   1 0 8  8 21 55 5F 46 52 20 20 20        0    0     3000        0        0        0        0        0
 6.832158 CANFD   1 Rx        70E                                   1 0 8  8 22 20 AA AA AA AA AA AA        0    0     3000        0        0        0        0        0
 6.948041 1  706             Tx   d 8 03 22 F1 EF 00 00 00 00
 6.972113 CANFD   1 Rx        70E                                   1 0 8  8 10 2B 62 F1 EF 07 06 0B        0    0     3000        0        0        0        0        0
 6.979331 1  706             Tx   d 8 30 08 0A 00 00 00 00 00
 6.981963 CANFD   1 Rx        70E                                   1 0 8  8 21 52 31 30 20 53 50 33        0    0     3000        0        0        0        0        0
 6.996910 CANFD   1 Rx        70E                                   1 0 8  8 22 2F 31 2F 30 0C 52 31        0    0     3000        0        0        0        0        0
 7.012428 CANFD   1 Rx        70E                                   1 0 8  8 23 35 35 20 53 50 33 2F        0    0     3000        0        0        0        0        0
 7.026892 CANFD   1 Rx        70E                                   1 0 8  8 24 31 2F 30 0C 52 31 35        0    0     3000        0        0        0        0        0
 7.042190 CANFD   1 Rx        70E                                   1 0 8  8 25 36 20 53 50 33 2F 31        0    0     3000        0        0        0        0        0
 7.056943 CANFD   1 Rx        70E                                   1 0 8  8 26 2F 30 AA AA AA AA AA        0    0     3000        0        0        0        0        0
 7.174931 1  706             Tx   d 8 03 22 F1 00 00 00 00 00
 7.192142 CANFD   1 Rx        70E                                   1 0 8  8 03 7F 22 31 AA AA AA AA        0    0     3000        0        0        0        0        0
 7.309670 1  706             Tx   d 8 03 22 F1 87 00 00 00 00
 7.331963 CANFD   1 Rx        70E                                   1 0 8  8 10 0D 62 F1 87 38 38 35        0    0     3000        0        0        0        0        0
 7.349284 1  706             Tx   d 8 30 08 0A 00 00 00 00 00
 7.351958 CANFD   1 Rx        70E                                   1 0 8  8 21 34 30 42 4D 30 30 30        0    0     3000        0        0        0        0        0
 7.469677 1  706             Tx   d 8 03 22 F1 8B 00 00 00 00
 7.492067 CANFD   1 Rx        70E                                   1 0 8  8 07 62 F1 8B 20 25 09 20        0    0     3000        0        0        0        0        0
 7.606489 1  706             Tx   d 8 03 22 F1 8C 00 00 00 00
 7.622350 CANFD   1 Rx        70E                                   1 0 8  8 10 0D 62 F1 8C 30 30 30        0    0     3000        0        0        0        0        0
 7.632015 1  706             Tx   d 8 30 08 0A 00 00 00 00 00
 7.636868 CANFD   1 Rx        70E                                   1 0 8  8 21 30 30 30 30 30 31 34        0    0     3000        0        0        0        0        0
 7.756576 1  706             Tx   d 8 03 22 F1 91 00 00 00 00
 7.771998 CANFD   1 Rx        70E                                   1 0 8  8 07 62 F1 91 44 2E 30 30        0    0     3000        0        0        0        0        0
 7.896368 1  706             Tx   d 8 03 22 F1 93 00 00 00 00
 7.912156 CANFD   1 Rx        70E                                   1 0 8  8 07 62 F1 93 44 2E 30 30        0    0     3000        0        0        0        0        0
 8.029240 1  706             Tx   d 8 03 22 F1 C1 00 00 00 00
 8.052010 CANFD   1 Rx        70E                                   1 0 8  8 03 7F 22 22 AA AA AA AA        0    0     3000        0        0        0        0        0
 8.171312 1  706             Tx   d 8 03 22 F1 95 00 00 00 00
 8.191983 CANFD   1 Rx        70E                                   1 0 8  8 03 7F 22 31 AA AA AA AA        0    0     3000        0        0        0        0        0
 8.310226 1  706             Tx   d 8 03 22 F1 A0 00 00 00 00
 8.331842 CANFD   1 Rx        70E                                   1 0 8  8 03 7F 22 31 AA AA AA AA        0    0     3000        0        0        0        0        0
 8.444881 1  706             Tx   d 8 03 22 F1 A1 00 00 00 00
 8.461880 CANFD   1 Rx        70E                                   1 0 8  8 07 62 F1 A1 54 45 4C 45        0    0     3000        0        0        0        0        0
 8.580100 1  706             Tx   d 8 03 22 F1 B0 00 00 00 00
 8.601899 CANFD   1 Rx        70E                                   1 0 8  8 04 62 F1 B0 01 AA AA AA        0    0     3000        0        0        0        0        0
 8.716149 1  706             Tx   d 8 03 22 F1 B1 00 00 00 00
 8.731856 CANFD   1 Rx        70E                                   1 0 8  8 10 08 62 F1 B1 32 35 41        0    0     3000        0        0        0        0        0
 8.740234 1  706             Tx   d 8 30 08 0A 00 00 00 00 00
 8.741942 CANFD   1 Rx        70E                                   1 0 8  8 21 31 30 AA AA AA AA AA        0    0     3000        0        0        0        0        0
 8.855743 1  706             Tx   d 8 03 22 F1 DD 00 00 00 00
 8.872001 CANFD   1 Rx        70E                                   1 0 8  8 10 0A 62 F1 DD 32 35 41        0    0     3000        0        0        0        0        0
 8.881894 1  706             Tx   d 8 30 08 0A 00 00 00 00 00
 8.886885 CANFD   1 Rx        70E                                   1 0 8  8 21 31 30 30 30 AA AA AA        0    0     3000        0        0        0        0        0
 9.004599 1  706             Tx   d 8 03 22 F1 97 00 00 00 00
 9.021870 CANFD   1 Rx        70E                                   1 0 8  8 10 0E 62 F1 97 53 48 56        0    0     3000        0        0        0        0        0
 9.027828 1  706             Tx   d 8 30 08 0A 00 00 00 00 00
 9.031857 CANFD   1 Rx        70E                                   1 0 8  8 21 55 5F 46 52 20 20 20        0    0     3000        0        0        0        0        0
 9.046911 CANFD   1 Rx        70E                                   1 0 8  8 22 20 AA AA AA AA AA AA        0    0     3000        0        0        0        0        0
 9.559846 1  706             Tx   d 8 04 14 FF FF FF 00 00 00
 9.571798 CANFD   1 Rx        70E                                   1 0 8  8 01 54 AA AA AA AA AA AA        0    0     3000        0        0        0        0        0
 9.633843 1  706             Tx   d 8 04 14 80 00 FF 00 00 00
 9.641714 CANFD   1 Rx        70E                                   1 0 8  8 01 54 AA AA AA AA AA AA        0    0     3000        0        0        0        0        0
 9.713380 1  706             Tx   d 8 04 14 FF FF FE 00 00 00
 9.721846 CANFD   1 Rx        70E                                   1 0 8  8 03 7F 14 31 AA AA AA AA        0    0     3000        0        0        0        0        0
End TriggerBlock
